# 命令大全

***



> 查询四路状态
>
> > FE 01 00 00 00 04 29 C6
>
> ***
>
> 
>
> ### 返回值
>
> > FE 01 01 00 61 9C 



***



> 控制第一路
>
> ### 开
>
> > FE 05 00 00 FF 00 98 35
>
> ***
>
> 返回值
>
> > FE 05 00 00 FF 00 98 35
>
> ### 关
>
> > FE 05 00 00 00 00 D9 C5



***



> 控制第二路开
>
> ### 开
>
> > FE 05 00 01 FF 00 C9 F5
>
> ### 关
>
> > FE 05 00 01 00 00 88 05





> 控制第三路
>
> ### 开
>
> > FE 05  00 02 FF 00 39 F5
>
> ### 关
>
> > FE 05 00 02 00 00 78 05



> 控制第四路
>
>  ### 开
>
> > FE 05 00 03 FF 00 68 35
>
> ### 关
>
> > FE 05 00 03 00 00 29 C5



> 全开全关
>
> ### 全开
>
> > FE 0F 00 00 00 04 01 FF 31 D2
>
> ### 全关
>
> > FE 0F 00 00 00 04 01 00 71 92
>
> ***
>
> ### 全开全关返回码
>
> > FE 0F 00 00 00 04 40 07



***



> 读取第一路光耦合
>
> # 暂时用不到，不做规划
>
> ### （如果有需要可以到官网查询）
>
> #### 官网地址 ：https://www.juyingele.com.cn/product/JYCLoud/LAN/DO/922.html



